Frequency Log(Hz), Gain (dB), Phase (deg)
1.00010441154522, -55.9261696999814, -20.7721118011987
1.02002096711708, -53.6883660840568, -13.825994332185
1.03995038360925, -52.1594373691031, 25.2647635117457
1.05985181982658, -54.1989084746125, 20.2276534975703
1.08009364755968, -50.250116929712, -5.44043174829694
1.09981976674463, -52.6360730281625, -3.42366888048387
1.12016338353543, -48.326949586986, 7.307493379687
1.13994833382499, -48.2964418945681, -37.1265541000624
1.1598799011097, -45.2823229453974, -24.4185030230016
1.17990004057843, -43.9187798089575, -35.215589918315
1.19995760707635, -42.9080161015582, -43.637364050171
1.22000782988254, -41.0730085905207, -43.0160499967187
1.24001176959216, -40.33701875164, -51.012823079157
1.25993577678249, -40.0271600574216, -58.2004727442881
1.28000575955782, -38.5041926650283, -65.2623711925689
1.29991959667752, -36.9277106304643, -65.7469781875511
1.31989067760814, -36.935188439426, -72.2008939324089
1.34009406369643, -36.2567035615642, -84.3759022850898
1.36003523728506, -34.5662136985451, -75.9573418335712
1.37991109385924, -34.0010366819719, -95.1024258009934
1.40007768312633, -33.3967281120281, -99.522490546658
1.42008783473672, -32.3253814618735, -107.000954055726
1.43992207972169, -31.2187613692205, -108.184143367626
1.46006938077317, -30.8650539683443, -119.067521134497
1.47996672091532, -29.8979412135025, -124.741062455626
1.5000678117536, -28.9044518667502, -130.711028840606
1.52001302770936, -27.8277742865776, -139.981210283258
1.54006315181347, -27.3362619072455, -147.23896303196
1.56003108757429, -26.2775163838917, -159.864334304579
1.58001568550586, -25.6520438508833, -166.663123520685
1.59997529135653, -24.5073690335338, -175.355414771472
1.61999020803799, -24.0264675199649, 175.279177082377
1.64001361518114, -23.1779334108758, 165.630971006099
1.66000468423665, -22.5166272464316, 153.891670601889
1.68002945062588, -21.5514236524768, 141.60109019795
1.70004382360942, -20.7888428515903, 130.024153153545
1.72000946446886, -20.138258609925, 118.624247941284
1.73998158451947, -19.2999897082207, 104.887482371119
1.76000426805654, -18.5094612378878, 91.8477153768697
1.78003125975657, -17.6664287636256, 78.7929826684171
1.80002225004021, -16.8461207298387, 63.2666476600895
1.82001580161608, -16.0482435557298, 48.4281738387753
1.83997202524942, -15.3225306893001, 32.3577869059658
1.8599904029255, -14.5697182804686, 16.1099521284449
1.88002320987494, -13.8410112176751, -1.95598894732534
1.90002879536257, -12.8577136258103, -20.0506117188946
1.91997104191482, -12.2452853158612, -38.4935580771015
1.93998605246849, -11.4076106164445, -58.7612910497703
1.96002475408524, -10.6212983504906, -79.2745596235088
1.97999344328606, -9.80171176286538, -101.019041605885
2.0000073516539, -9.02471560609769, -123.665954669904
2.02002096711708, -8.30872256829199, -146.853494139593
2.0399946519424, -7.59624495892524, -171.79248380231
2.06002093761762, -6.8972918990191, 162.146203708795
2.08001291617513, -6.21261656055846, 135.577527118483
2.10001257228916, -5.48645894891036, 106.647788139538
2.12001614010907, -4.82165479518561, 77.4453840593649
2.13998349794645, -4.20580067836791, 45.9322420112759
2.1600142328404, -3.57345497219285, 13.5722712972419
2.17999625469437, -2.96338574790011, -20.8092946371217
2.19998823325188, -2.39643732342455, -55.8354979776458
2.22000782988254, -1.88182600977744, -93.575908087392
2.24001176959216, -1.3746379736226, -132.248366359491
2.25998912663599, -0.828240371916765, -172.324419620004
2.28000575955782, -0.385439490741357, 145.329319577934
2.29999258121376, -0.0355394891857725, 101.53255198154
2.32000684571954, 0.321749419355417, 55.8265786266978
2.34000533257304, 0.65534611768964, 7.89001686578992
2.35999286502473, 0.929851583021078, -42.009302339307
2.37999203589319, 1.18734441988374, -94.2498951562618
2.40000039965217, 1.39411959778473, -148.71562744037
2.41999557887192, 1.59717418855903, 154.802224729012
2.43999257635068, 1.75571078570935, 96.6602765813569
2.46000206916704, 1.88143566763078, 35.8995017954883
2.47999886587532, 2.00298548158333, -28.3531723521884
2.500006423036, 2.06435963636165, -94.8077743010632
2.51999837020646, 2.12699080373469, -165.035690060784
2.53999316640007, 2.17598456849002, 120.539913742311
2.56000435271129, 2.20387935148088, 43.9828599290559
2.58000291946044, 2.18241034599442, -34.7685744462868
2.59999967553901, 2.15142113481307, -113.776943744126
2.62000185116562, 2.08388340182232, 158.661266617222
2.64000249638848, 2.00964554686162, 66.0938406509586
2.66000468423665, 1.90054802600396, -29.8882170922
2.6799990296808, 1.77989386949403, -129.927399148622
2.69999540458022, 1.56289219653184, 130.813767863612
2.72000021619148, 1.38102987277683, 24.9222714998882
2.7399992491788, 1.15305468796374, -86.5554696884687
2.7599958334343, 0.874155544607853, 151.153916595007
2.77999904086996, 0.563568143809931, 24.726488454202
2.79999917320597, 0.151771867813234, -105.389112754349
2.82000110940268, -0.25821012742783, 122.613122306601
2.84000008860648, -0.766805318466076, -13.2596717171521
2.85999710288125, -1.30329641433651, -157.258618868955
2.87999761722448, -1.89914335147854, 44.3169603151187
2.89999824459179, -2.4571488741398, -122.573148902778
2.92000021954807, -3.1626593526336, 67.8522171285793
2.94000277078452, -3.95028822057674, -104.733710353019
2.9599981453494, -4.73385065400215, 71.716193515404
2.97999852569613, -5.68454040791522, -123.919240624358
2.99999764447161, -6.62632600102413, 42.0812048484076
3.01999779176651, -7.57994962081753, -159.181927489862
3.03999907852754, -8.63202145024634, -13.3822142459575
3.05999980149489, -9.65348483554818, 114.975121906139
3.08000080517297, -10.9368250565312, -126.350717782708
3.10000100636998, -12.223673926447, -10.5084002825462
3.12000141302038, -13.4296083315531, 83.1502714629868
3.14000107893955, -14.9344260804544, 155.190258183643
3.16000080153694, -16.6074415219748, -133.530665670869
3.1799994614645, -17.6238078366509, -77.1774553245533
3.20000048311739, -19.9344893946162, -20.9643558652218
3.21999905616802, -21.8635652095363, 26.9687881408445
3.24000059788624, -23.1293819787509, 68.3215714545564
3.2599997958203, -25.1036275576959, 75.046088069117
3.28000066516452, -27.2289411725816, 42.2885143860187
3.29999987899284, -29.9488401979872, 31.5032288433516
3.31999987650906, -32.4000477964721, -4.09859401053701
3.34000089554095, -34.3576869047444, -71.9592115931001
3.35999922112733, -37.2765242162915, 157.144225364922
3.38000012926693, -38.9090699654975, 58.3473841259043
3.40000039965217, -40.8585284390569, -96.9228078575459
3.41999926948281, -40.5879419784594, 146.208474644921
3.43999962538423, -42.4507359928996, 62.1624882052227
3.46000038624321, -39.9263557597535, -147.418859582644
3.48000047306087, -36.8171017721906, 11.1945633557039
3.50000028368695, -48.3938974202369, 19.5310533399737
3.51999983597902, -47.452147337352, -143.061718851165
3.54000016544894, -47.4651143207212, -147.638094163251
3.56000034233988, -51.1443245015821, -159.224792251827
3.58000036620633, -47.2508382247031, 86.0306982436469
3.59999967553901, -51.8425657580967, 68.9095253480822
3.61999952256506, -46.7992252413651, 130.074798535537
3.64000027259579, -45.8167944745249, 163.499084182702
3.66000043683708, -60.1985772178893, -101.328758556593
3.68000004374663, -50.7958801707932, -91.5191997691343
3.70000024672607, -48.558063868536, 138.160272238499
3.72000021619148, -58.0468600237256, 174.170041414788
3.7400001323929, -51.4275362349967, 155.690456666
3.7600000507659, -43.5624910360502, 168.715653060793
3.77999984637125, -39.935344501616, 96.2148043933232
3.79999994245353, -50.9695761582152, -11.8812530386464
3.819999640154, -50.51183203678, 132.226641097126
3.84000008860648, -48.7526651650546, 96.1715117349704
3.85999978283461, -46.8316821517209, 171.748984718419
3.8800001765574, -54.7577119232439, 146.432684960193
3.90000007769864, -52.6109514205456, 149.085376268547
3.92000021954807, -53.9104118345648, 130.736480947283
3.93999998444321, -52.9445833022983, 40.1486218389955
3.95999974191952, -48.7184316155126, 73.2952901673158
3.98000005040756, -55.2833927569834, -77.9169548119102
4.00000007128752, -54.2578817091435, 98.7619856013326
